"Time Stamp",ID,Extended,Dir,Bus,LEN,D1,D2,D3,D4,D5,D6,D7,D8
3856,00000023,false,Rx,0,5,25,B5,C2,00,62,00,00,00
54252,0000001B,false,Rx,0,3,26,FF,D9,00,00,00,00,00
83848,00000023,false,Rx,0,5,26,4E,BD,00,CD,00,00,00
133964,0000001B,false,Rx,0,3,28,FF,D7,00,00,00,00,00
163832,00000023,false,Rx,0,5,28,CF,C2,00,45,00,00,00
213845,0000001B,false,Rx,0,3,24,FF,DB,00,00,00,00,00
243864,00000023,false,Rx,0,5,24,DA,B8,00,48,00,00,00
293806,0000001B,false,Rx,0,3,27,FF,D8,00,00,00,00,00
328113,00000023,false,Rx,0,5,27,EE,BD,00,2C,00,00,00
373789,0000001B,false,Rx,0,3,B1,FF,4E,00,00,00,00,00
403905,00000023,false,Rx,0,5,B1,80,7F,04,4A,00,00,00
454005,0000001B,false,Rx,0,3,21,FF,DE,00,00,00,00,00
483975,00000023,false,Rx,0,3,21,7D,A3,00,00,00,00,00
533812,0000001B,false,Rx,0,3,22,FF,DD,00,00,00,00,00
563944,00000023,false,Rx,0,5,22,8A,BD,00,95,00,00,00
613940,0000001B,false,Rx,0,3,23,FF,DC,00,00,00,00,00
643831,00000023,false,Rx,0,5,23,E6,C2,00,33,00,00,00
693939,0000003B,false,Rx,0,8,27,FF,C0,55,5B,25,FF,DA
4604298,00000034,false,Rx,0,2,64,7E,00,00,00,00,00,00
4604298,00000034,false,Rx,0,2,64,7E,00,00,00,00,00,00
4684074,00000023,false,Rx,0,5,25,B5,C2,00,62,00,00,00
4734205,0000001B,false,Rx,0,8,26,FF,F9,B5,F4,28,CF,C2
4894006,0000001B,false,Rx,0,3,24,FF,DB,00,00,00,00,00
4924163,00000023,false,Rx,0,5,24,DA,B8,00,48,00,00,00
4974190,0000001B,false,Rx,0,3,27,FF,D8,00,00,00,00,00
5004090,00000023,false,Rx,0,5,27,EE,BD,00,2C,00,00,00
5054174,0000001B,false,Rx,0,3,B1,FF,4E,00,00,00,00,00
5084193,00000023,false,Rx,0,5,B1,80,7F,04,4A,00,00,00
5133999,0000001B,false,Rx,0,3,21,FF,DE,00,00,00,00,00
5164234,00000023,false,Rx,0,6,21,7D,A3,55,5B,27,00,00
10404305,00000023,false,Rx,0,5,27,EE,BD,00,2C,00,00,00
10454334,0000001B,false,Rx,0,3,B1,FF,4E,00,00,00,00,00
10484481,00000023,false,Rx,0,5,B1,80,7F,04,4A,00,00,00
10534485,0000001B,false,Rx,0,3,21,FF,DE,00,00,00,00,00
10564536,00000023,false,Rx,0,3,21,7D,A3,00,00,00,00,00
10614532,0000001B,false,Rx,0,3,22,FF,DD,00,00,00,00,00
10644471,00000023,false,Rx,0,5,22,8A,BD,00,95,00,00,00
10694460,0000001B,false,Rx,0,3,23,FF,DC,00,00,00,00,00
10724543,00000023,false,Rx,0,5,23,E6,C2,00,33,00,00,00
10774404,0000001B,false,Rx,0,3,25,FF,DA,00,00,00,00,00
10804352,00000023,false,Rx,0,5,25,B5,C2,00,62,00,00,00
11204513,00000023,false,Rx,0,5,B1,80,7F,04,4A,00,00,00
11254517,0000001B,false,Rx,0,3,21,FF,DE,00,00,00,00,00
11284377,00000023,false,Rx,0,3,21,7D,A3,00,00,00,00,00
11334446,0000001B,false,Rx,0,3,22,FF,DD,00,00,00,00,00
11364577,00000023,false,Rx,0,5,22,8A,BD,00,95,00,00,00
11415078,0000001B,false,Rx,0,3,23,FF,DC,00,00,00,00,00
11444473,00000023,false,Rx,0,5,23,E6,C2,00,33,00,00,00
11494422,0000001B,false,Rx,0,3,25,FF,DA,00,00,00,00,00
11524714,00000023,false,Rx,0,5,25,B5,C2,00,62,00,00,00
11574494,0000001B,false,Rx,0,3,26,FF,D9,00,00,00,00,00
11604521,00000023,false,Rx,0,5,26,4E,BD,00,CD,00,00,00
11654439,0000001B,false,Rx,0,3,28,FF,D7,00,00,00,00,00
11684442,00000023,false,Rx,0,5,28,CF,C2,00,45,00,00,00
11734535,0000001B,false,Rx,0,3,24,FF,DB,00,00,00,00,00
11764522,00000023,false,Rx,0,5,24,DA,B8,00,48,00,00,00
11814774,0000001B,false,Rx,0,7,27,FF,D8,6D,0D,D9,D7,00
12404583,00000023,false,Rx,0,5,28,CF,C2,00,45,00,00,00
12454579,0000001B,false,Rx,0,3,24,FF,DB,00,00,00,00,00
12484447,00000023,false,Rx,0,5,24,DA,B8,00,48,00,00,00
12534539,0000001B,false,Rx,0,3,27,FF,D8,00,00,00,00,00
12564774,00000023,false,Rx,0,5,27,EE,BD,00,2C,00,00,00
12614755,0000002F,false,Rx,0,5,B1,FE,FF,00,4F,00,00,00
12654415,0000002F,false,Rx,0,5,21,7D,BD,05,9E,00,00,00
12694555,0000002F,false,Rx,0,5,22,8A,BD,0D,88,00,00,00
12734558,0000002F,false,Rx,0,5,23,E6,C2,05,2E,00,00,00
12774395,0000002F,false,Rx,0,5,25,B5,C2,05,5D,00,00,00
12814575,0000002F,false,Rx,0,5,26,4E,BD,05,C8,00,00,00
12854540,0000002F,false,Rx,0,5,28,CF,C2,05,40,00,00,00
12894481,0000002F,false,Rx,0,5,24,DA,B8,05,43,00,00,00
13214969,0000001B,false,Rx,0,3,23,FF,DC,00,00,00,00,00
13244573,00000023,false,Rx,0,5,23,E6,C2,00,33,00,00,00
13294482,0000001B,false,Rx,0,3,25,FF,DA,00,00,00,00,00
13329005,00000023,false,Rx,0,5,25,B5,C2,00,62,00,00,00
13374641,0000001B,false,Rx,0,3,26,FF,D9,00,00,00,00,00
13404485,00000023,false,Rx,0,5,26,4E,BD,00,CD,00,00,00
13454499,0000001B,false,Rx,0,3,28,FF,D7,00,00,00,00,00
13484654,00000023,false,Rx,0,5,28,CF,C2,00,45,00,00,00
13535050,0000001B,false,Rx,0,3,24,FF,DB,00,00,00,00,00
13564598,00000023,false,Rx,0,5,24,DA,B8,00,48,00,00,00
13615042,0000001B,false,Rx,0,3,27,FF,D8,00,00,00,00,00
13644470,00000023,false,Rx,0,5,27,EE,BD,00,2C,00,00,00
13694706,0000001B,false,Rx,0,3,B1,FF,4E,00,00,00,00,00
13724829,00000023,false,Rx,0,5,B1,80,7F,04,4A,00,00,00
13774586,0000001B,false,Rx,0,3,21,FF,DE,00,00,00,00,00
13804613,00000023,false,Rx,0,3,21,7D,A3,00,00,00,00,00
13854570,0000001B,false,Rx,0,3,22,FF,DD,00,00,00,00,00
13884566,00000023,false,Rx,0,5,22,8A,BD,00,95,00,00,00
13934650,0000001B,false,Rx,0,3,23,FF,DC,00,00,00,00,00
13964781,00000023,false,Rx,0,5,23,E6,C2,00,33,00,00,00
14014970,0000001B,false,Rx,0,3,25,FF,DA,00,00,00,00,00
14044526,00000023,false,Rx,0,5,25,B5,C2,00,62,00,00,00
14094571,0000001B,false,Rx,0,3,26,FF,D9,00,00,00,00,00
14124758,00000023,false,Rx,0,5,26,4E,BD,00,CD,00,00,00
14174635,0000001B,false,Rx,0,3,28,FF,D7,00,00,00,00,00
14204638,00000023,false,Rx,0,5,28,CF,C2,00,45,00,00,00
14254580,0000001B,false,Rx,0,3,24,FF,DB,00,00,00,00,00
14284528,00000023,false,Rx,0,5,24,DA,B8,00,48,00,00,00
14334573,0000001B,false,Rx,0,3,27,FF,D8,00,00,00,00,00
14364688,00000023,false,Rx,0,5,27,EE,BD,00,2C,00,00,00
14414637,0000001B,false,Rx,0,3,B1,FF,4E,00,00,00,00,00
14444657,00000023,false,Rx,0,5,B1,80,7F,04,4A,00,00,00
14654718,0000001B,false,Rx,0,3,23,FF,DC,00,00,00,00,00
14684610,00000023,false,Rx,0,5,23,E6,C2,00,33,00,00,00
14734742,0000001B,false,Rx,0,3,25,FF,DA,00,00,00,00,00
14764769,00000023,false,Rx,0,5,25,B5,C2,00,62,00,00,00
14815093,0000001B,false,Rx,0,3,26,FF,D9,00,00,00,00,00
14844696,00000023,false,Rx,0,5,26,4E,BD,00,CD,00,00,00
14894684,0000001B,false,Rx,0,3,28,FF,D7,00,00,00,00,00
14924951,00000023,false,Rx,0,5,28,CF,C2,00,45,00,00,00
14974786,0000001B,false,Rx,0,3,24,FF,DB,00,00,00,00,00
15004702,00000023,false,Rx,0,5,24,DA,B8,00,48,00,00,00
15054682,0000001B,false,Rx,0,3,27,FF,D8,00,00,00,00,00
15084701,00000023,false,Rx,0,5,27,EE,BD,00,2C,00,00,00
15134642,0000001B,false,Rx,0,5,B1,FF,4E,64,DD,00,00,00
15328927,00000023,false,Rx,0,5,22,8A,BD,00,95,00,00,00
15374786,0000001B,false,Rx,0,3,23,FF,DC,00,00,00,00,00
15404686,00000023,false,Rx,0,5,23,E6,C2,00,33,00,00,00
15454818,0000001B,false,Rx,0,3,25,FF,DA,00,00,00,00,00
15484733,00000023,false,Rx,0,5,25,B5,C2,00,62,00,00,00
15534865,0000001B,false,Rx,0,3,26,FF,D9,00,00,00,00,00
15564756,00000023,false,Rx,0,5,26,4E,BD,00,CD,00,00,00
15615009,0000001B,false,Rx,0,3,28,FF,D7,00,00,00,00,00
15644701,00000023,false,Rx,0,5,28,CF,C2,00,45,00,00,00
15694832,0000001B,false,Rx,0,3,24,FF,DB,00,00,00,00,00
15725003,00000023,false,Rx,0,5,24,DA,B8,00,48,00,00,00
15774593,0000001B,false,Rx,0,3,27,FF,D8,00,00,00,00,00
15804724,00000023,false,Rx,0,5,27,EE,BD,00,2C,00,00,00
15964750,00000023,false,Rx,0,3,21,7D,A3,00,00,00,00,00
16014827,0000001B,false,Rx,0,3,22,FF,DD,00,00,00,00,00
16044718,00000023,false,Rx,0,5,22,8A,BD,00,95,00,00,00
16094850,0000001B,false,Rx,0,3,23,FF,DC,00,00,00,00,00
16124997,00000023,false,Rx,0,5,23,E6,C2,00,33,00,00,00
16174769,0000001B,false,Rx,0,3,25,FF,DA,00,00,00,00,00
16204820,00000023,false,Rx,0,5,25,B5,C2,00,62,00,00,00
16254625,0000001B,false,Rx,0,3,26,FF,D9,00,00,00,00,00
16284749,00000023,false,Rx,0,5,26,4E,BD,00,CD,00,00,00
16334904,0000001B,false,Rx,0,3,28,FF,D7,00,00,00,00,00
16364788,00000023,false,Rx,0,5,28,CF,C2,00,45,00,00,00
16415033,0000001B,false,Rx,0,3,24,FF,DB,00,00,00,00,00
16444740,00000023,false,Rx,0,5,24,DA,B8,00,48,00,00,00
16494872,0000001B,false,Rx,0,3,27,FF,D8,00,00,00,00,00
16525146,00000023,false,Rx,0,5,27,EE,BD,00,2C,00,00,00
16574878,0000001B,false,Rx,0,3,B1,FF,4E,00,00,00,00,00
16604817,00000023,false,Rx,0,5,B1,80,7F,04,4A,00,00,00
16654821,0000001B,false,Rx,0,3,21,FF,DE,00,00,00,00,00
16684689,00000023,false,Rx,0,3,21,7D,A3,00,00,00,00,00
16734734,0000001B,false,Rx,0,3,22,FF,DD,00,00,00,00,00
16764889,00000023,false,Rx,0,5,22,8A,BD,00,95,00,00,00
16814885,0000001B,false,Rx,0,3,23,FF,DC,00,00,00,00,00
16844800,00000023,false,Rx,0,5,23,E6,C2,00,33,00,00,00
17054717,0000001B,false,Rx,0,3,28,FF,D7,00,00,00,00,00
17084871,00000023,false,Rx,0,5,28,CF,C2,00,45,00,00,00
17134899,0000001B,false,Rx,0,3,24,FF,DB,00,00,00,00,00
17164950,00000023,false,Rx,0,5,24,DA,B8,00,48,00,00,00
17215009,0000001B,false,Rx,0,3,27,FF,D8,00,00,00,00,00
17244805,00000023,false,Rx,0,5,27,EE,BD,00,2C,00,00,00
17294936,0000001B,false,Rx,0,3,B1,FF,4E,00,00,00,00,00
17329061,00000023,false,Rx,0,5,B1,80,7F,04,4A,00,00,00
17374698,0000001B,false,Rx,0,3,21,FF,DE,00,00,00,00,00
17404806,00000023,false,Rx,0,3,21,7D,A3,00,00,00,00,00
17454715,0000001B,false,Rx,0,3,22,FF,DD,00,00,00,00,00
17484838,00000023,false,Rx,0,5,22,8A,BD,00,95,00,00,00
17534780,0000001B,false,Rx,0,3,23,FF,DC,00,00,00,00,00
17564856,00000023,false,Rx,0,5,23,E6,C2,00,33,00,00,00
17614669,0000002F,false,Rx,0,5,25,B5,C2,05,5D,00,00,00
17814864,0000002F,false,Rx,0,5,B1,FE,FF,00,4F,00,00,00
17854915,0000002F,false,Rx,0,5,21,7D,BD,05,9E,00,00,00
17894784,0000002F,false,Rx,0,5,22,8A,BD,0D,88,00,00,00
17934899,0000002F,false,Rx,0,5,23,E6,C2,05,2E,00,00,00
17974950,0000001B,false,Rx,0,3,25,FF,DA,00,00,00,00,00
18004873,00000023,false,Rx,0,5,25,B5,C2,00,62,00,00,00
18054815,0000001B,false,Rx,0,3,26,FF,D9,00,00,00,00,00
18084834,00000023,false,Rx,0,5,26,4E,BD,00,CD,00,00,00
18134743,0000001B,false,Rx,0,3,28,FF,D7,00,00,00,00,00
18165002,00000023,false,Rx,0,5,28,CF,C2,00,45,00,00,00
18215053,0000001B,false,Rx,0,3,24,FF,DB,00,00,00,00,00
18244849,00000023,false,Rx,0,5,24,DA,B8,00,48,00,00,00
18294957,0000001B,false,Rx,0,3,27,FF,D8,00,00,00,00,00
18329937,00000023,false,Rx,0,5,27,EE,BD,00,2C,00,00,00
18374988,0000001B,false,Rx,0,3,B1,FF,4E,00,00,00,00,00
18404911,00000023,false,Rx,0,5,B1,80,7F,04,4A,00,00,00
18454892,0000001B,false,Rx,0,3,21,FF,DE,00,00,00,00,00
18484919,00000023,false,Rx,0,3,21,7D,A3,00,00,00,00,00
18534884,0000001B,false,Rx,0,3,22,FF,DD,00,00,00,00,00
18564848,00000023,false,Rx,0,5,22,8A,BD,00,95,00,00,00
18615244,0000001B,false,Rx,0,3,23,FF,DC,00,00,00,00,00
18644777,00000023,false,Rx,0,5,23,E6,C2,00,33,00,00,00
18695012,0000001B,false,Rx,0,3,25,FF,DA,00,00,00,00,00
18725112,00000023,false,Rx,0,5,25,B5,C2,00,62,00,00,00
18774996,0000001B,false,Rx,0,3,26,FF,D9,00,00,00,00,00
18804896,00000023,false,Rx,0,5,26,4E,BD,00,CD,00,00,00
18854837,0000001B,false,Rx,0,3,28,FF,D7,00,00,00,00,00
18884999,00000023,false,Rx,0,5,28,CF,C2,00,45,00,00,00
18934860,0000001B,false,Rx,0,3,24,FF,DB,00,00,00,00,00
18964991,00000023,false,Rx,0,5,24,DA,B8,00,48,00,00,00
19125118,00000023,false,Rx,0,5,B1,80,7F,04,4A,00,00,00
19174995,0000001B,false,Rx,0,3,21,FF,DE,00,00,00,00,00
19204894,00000023,false,Rx,0,3,21,7D,A3,00,00,00,00,00
19255018,0000001B,false,Rx,0,3,22,FF,DD,00,00,00,00,00
19284917,00000023,false,Rx,0,5,22,8A,BD,00,95,00,00,00
19334882,0000001B,false,Rx,0,3,23,FF,DC,00,00,00,00,00
19364974,00000023,false,Rx,0,5,23,E6,C2,00,33,00,00,00
19414923,0000001B,false,Rx,0,3,25,FF,DA,00,00,00,00,00
19444926,00000023,false,Rx,0,5,25,B5,C2,00,62,00,00,00
19495058,0000001B,false,Rx,0,3,26,FF,D9,00,00,00,00,00
19525413,00000023,false,Rx,0,5,26,4E,BD,00,CD,00,00,00
19574922,0000001B,false,Rx,0,3,28,FF,D7,00,00,00,00,00
19604926,00000023,false,Rx,0,5,28,CF,C2,00,45,00,00,00
19654859,0000001B,false,Rx,0,3,24,FF,DB,00,00,00,00,00
19685006,00000023,false,Rx,0,5,24,DA,B8,00,48,00,00,00
19734986,0000001B,false,Rx,0,3,27,FF,D8,00,00,00,00,00
19764974,00000023,false,Rx,0,5,27,EE,BD,00,2C,00,00,00
19815225,0000001B,false,Rx,0,3,B1,FF,4E,00,00,00,00,00
19844933,00000023,false,Rx,0,5,B1,80,7F,04,4A,00,00,00
19895025,0000001B,false,Rx,0,3,21,FF,DE,00,00,00,00,00
19925109,00000023,false,Rx,0,3,21,7D,A3,00,00,00,00,00
19975001,0000001B,false,Rx,0,3,22,FF,DD,00,00,00,00,00
20004845,00000023,false,Rx,0,5,22,8A,BD,00,95,00,00,00
20055081,0000001B,false,Rx,0,3,23,FF,DC,00,00,00,00,00
20084996,00000023,false,Rx,0,5,23,E6,C2,00,33,00,00,00
20134961,0000001B,false,Rx,0,3,25,FF,DA,00,00,00,00,00
20165116,00000023,false,Rx,0,5,25,B5,C2,00,62,00,00,00
20214929,0000001B,false,Rx,0,3,26,FF,D9,00,00,00,00,00
20244948,00000023,false,Rx,0,5,26,4E,BD,00,CD,00,00,00
20295057,0000001B,false,Rx,0,3,28,FF,D7,00,00,00,00,00
20329157,00000023,false,Rx,0,5,28,CF,C2,00,45,00,00,00
20375105,0000001B,false,Rx,0,3,24,FF,DB,00,00,00,00,00
20405028,00000023,false,Rx,0,5,24,DA,B8,00,48,00,00,00
20455009,0000001B,false,Rx,0,3,27,FF,D8,00,00,00,00,00
20485067,00000023,false,Rx,0,5,27,EE,BD,00,2C,00,00,00
20535095,0000001B,false,Rx,0,3,B1,FF,4E,00,00,00,00,00
20565146,00000023,false,Rx,0,5,B1,80,7F,04,4A,00,00,00
20615279,0000001B,false,Rx,0,3,21,FF,DE,00,00,00,00,00
20644986,00000023,false,Rx,0,3,21,7D,A3,00,00,00,00,00
20694896,0000001B,false,Rx,0,3,22,FF,DD,00,00,00,00,00
20725251,00000023,false,Rx,0,5,22,8A,BD,00,95,00,00,00
20775175,0000001B,false,Rx,0,3,23,FF,DC,00,00,00,00,00
20804970,00000023,false,Rx,0,5,23,E6,C2,00,33,00,00,00
20855102,0000001B,false,Rx,0,3,25,FF,DA,00,00,00,00,00
20885017,00000023,false,Rx,0,5,25,B5,C2,00,62,00,00,00
20934982,0000001B,false,Rx,0,3,26,FF,D9,00,00,00,00,00
20965578,00000023,false,Rx,0,5,26,4E,BD,00,CD,00,00,00
21015181,0000001B,false,Rx,0,3,28,FF,D7,00,00,00,00,00
21044922,00000023,false,Rx,0,5,28,CF,C2,00,45,00,00,00
21094967,0000001B,false,Rx,0,3,24,FF,DB,00,00,00,00,00
21125338,00000023,false,Rx,0,5,24,DA,B8,00,48,00,00,00
21175110,0000001B,false,Rx,0,3,27,FF,D8,00,00,00,00,00
21205033,00000023,false,Rx,0,5,27,EE,BD,00,2C,00,00,00
21254998,0000001B,false,Rx,0,3,B1,FF,4E,00,00,00,00,00
21285001,00000023,false,Rx,0,5,B1,80,7F,04,4A,00,00,00
21335109,0000001B,false,Rx,0,3,21,FF,DE,00,00,00,00,00
21365136,00000023,false,Rx,0,3,21,7D,A3,00,00,00,00,00
21415101,0000001B,false,Rx,0,3,22,FF,DD,00,00,00,00,00
21444969,00000023,false,Rx,0,5,22,8A,BD,00,95,00,00,00
21495391,0000001B,false,Rx,0,3,23,FF,DC,00,00,00,00,00
21525267,00000023,false,Rx,0,5,23,E6,C2,00,33,00,00,00
21575151,0000001B,false,Rx,0,3,25,FF,DA,00,00,00,00,00
21605074,00000023,false,Rx,0,5,25,B5,C2,00,62,00,00,00
21655039,0000001B,false,Rx,0,3,26,FF,D9,00,00,00,00,00
21685042,00000023,false,Rx,0,5,26,4E,BD,00,CD,00,00,00
21734976,0000001B,false,Rx,0,3,28,FF,D7,00,00,00,00,00
21765187,00000023,false,Rx,0,5,28,CF,C2,00,45,00,00,00
21815183,0000001B,false,Rx,0,3,24,FF,DB,00,00,00,00,00
21845130,00000023,false,Rx,0,5,24,DA,B8,00,48,00,00,00
21895134,0000001B,false,Rx,0,3,27,FF,D8,00,00,00,00,00
21925218,00000023,false,Rx,0,5,27,EE,BD,00,2C,00,00,00
21975246,0000001B,false,Rx,0,3,B1,FF,4E,00,00,00,00,00
22004986,00000023,false,Rx,0,5,B1,80,7F,04,4A,00,00,00
22055031,0000001B,false,Rx,0,3,21,FF,DE,00,00,00,00,00
22085050,00000023,false,Rx,0,3,21,7D,A3,00,00,00,00,00
22135158,0000001B,false,Rx,0,3,22,FF,DD,00,00,00,00,00
22165186,00000023,false,Rx,0,5,22,8A,BD,00,95,00,00,00
22215150,0000001B,false,Rx,0,3,23,FF,DC,00,00,00,00,00
22245065,00000023,false,Rx,0,5,23,E6,C2,00,33,00,00,00
22295197,0000001B,false,Rx,0,3,25,FF,DA,00,00,00,00,00
22329257,00000023,false,Rx,0,5,25,B5,C2,00,62,00,00,00
22375165,0000001B,false,Rx,0,3,26,FF,D9,00,00,00,00,00
22405232,00000023,false,Rx,0,5,26,4E,BD,00,CD,00,00,00
22455069,0000001B,false,Rx,0,3,28,FF,D7,00,00,00,00,00
22485072,00000023,false,Rx,0,5,28,CF,C2,00,45,00,00,00
22535204,0000001B,false,Rx,0,3,24,FF,DB,00,00,00,00,00
22565033,00000023,false,Rx,0,5,24,DA,B8,00,48,00,00,00
22615109,0000002F,false,Rx,0,5,27,EE,BD,05,27,00,00,00
22654985,0000002F,false,Rx,0,5,B1,FE,FF,00,4F,00,00,00
22695148,0000002F,false,Rx,0,5,21,7D,BD,05,9E,00,00,00
22735056,0000002F,false,Rx,0,5,22,8A,BD,0D,88,00,00,00
22775172,0000002F,false,Rx,0,5,23,E6,C2,05,2E,00,00,00
22815112,0000002F,false,Rx,0,5,25,B5,C2,05,5D,00,00,00
22855085,0000002F,false,Rx,0,5,26,4E,BD,05,C8,00,00,00
22895224,0000002F,false,Rx,0,5,28,CF,C2,05,40,00,00,00
22935092,0000002F,false,Rx,0,5,24,DA,B8,05,43,00,00,00
22975153,0000001B,false,Rx,0,3,27,FF,D8,00,00,00,00,00
23005180,00000023,false,Rx,0,5,27,EE,BD,00,2C,00,00,00
23055184,0000001B,false,Rx,0,3,B1,FF,4E,00,00,00,00,00
23085651,00000023,false,Rx,0,5,B1,80,7F,04,4A,00,00,00
23135072,0000001B,false,Rx,0,3,21,FF,DE,00,00,00,00,00
23165164,00000023,false,Rx,0,3,21,7D,A3,00,00,00,00,00
23215272,0000001B,false,Rx,0,3,22,FF,DD,00,00,00,00,00
23245218,00000023,false,Rx,0,5,22,8A,BD,00,95,00,00,00
23295246,0000001B,false,Rx,0,3,23,FF,DC,00,00,00,00,00
23329041,00000023,false,Rx,0,5,23,E6,C2,00,33,00,00,00
23375325,0000001B,false,Rx,0,3,25,FF,DA,00,00,00,00,00
23405120,00000023,false,Rx,0,5,25,B5,C2,00,62,00,00,00
23455252,0000001B,false,Rx,0,3,26,FF,D9,00,00,00,00,00
23485191,00000023,false,Rx,0,5,26,4E,BD,00,CD,00,00,00
23535155,0000001B,false,Rx,0,3,28,FF,D7,00,00,00,00,00
23565310,00000023,false,Rx,0,5,28,CF,C2,00,45,00,00,00
23615667,0000001B,false,Rx,0,3,24,FF,DB,00,00,00,00,00
23645166,00000023,false,Rx,0,5,24,DA,B8,00,48,00,00,00
23695131,0000001B,false,Rx,0,3,27,FF,D8,00,00,00,00,00
23725335,00000023,false,Rx,0,5,27,EE,BD,00,2C,00,00,00
23775235,0000001B,false,Rx,0,3,B1,FF,4E,00,00,00,00,00
23805158,00000023,false,Rx,0,5,B1,80,7F,04,4A,00,00,00
23855075,0000001B,false,Rx,0,3,21,FF,DE,00,00,00,00,00
23885222,00000023,false,Rx,0,3,21,7D,A3,00,00,00,00,00
23935179,0000002F,false,Rx,0,5,22,F5,C0,0D,1A,00,00,00
23975183,0000001B,false,Rx,0,3,23,FF,DC,00,00,00,00,00
24005186,00000023,false,Rx,0,5,23,E6,C2,00,33,00,00,00
24055127,0000001B,false,Rx,0,3,25,FF,DA,00,00,00,00,00
24085076,00000023,false,Rx,0,5,25,B5,C2,00,62,00,00,00
24135311,0000001B,false,Rx,0,3,26,FF,D9,00,00,00,00,00
24165179,00000023,false,Rx,0,5,26,4E,BD,00,CD,00,00,00
24215607,0000001B,false,Rx,0,3,28,FF,D7,00,00,00,00,00
24245187,00000023,false,Rx,0,5,28,CF,C2,00,45,00,00,00
24295623,0000001B,false,Rx,0,3,24,FF,DB,00,00,00,00,00
24328835,00000023,false,Rx,0,5,24,DA,B8,00,48,00,00,00
24375128,0000001B,false,Rx,0,3,27,FF,D8,00,00,00,00,00
24405267,00000023,false,Rx,0,5,27,EE,BD,00,2C,00,00,00
24455271,0000001B,false,Rx,0,3,B1,FF,4E,00,00,00,00,00
24485186,00000023,false,Rx,0,5,B1,80,7F,04,4A,00,00,00
24535270,0000001B,false,Rx,0,3,21,FF,DE,00,00,00,00,00
24565266,00000023,false,Rx,0,3,21,7D,A3,00,00,00,00,00
24615366,0000001B,false,Rx,0,3,22,FF,DD,00,00,00,00,00
24645130,00000023,false,Rx,0,5,22,9D,BE,00,81,00,00,00
24695175,0000001B,false,Rx,0,3,23,FF,DC,00,00,00,00,00
24725363,00000023,false,Rx,0,5,23,E6,C2,00,33,00,00,00
24775224,0000001B,false,Rx,0,3,25,FF,DA,00,00,00,00,00
24805251,00000023,false,Rx,0,5,25,B5,C2,00,62,00,00,00
24855192,0000001B,false,Rx,0,3,26,FF,D9,00,00,00,00,00
24885156,00000023,false,Rx,0,5,26,4E,BD,00,CD,00,00,00
24935416,0000001B,false,Rx,0,3,28,FF,D7,00,00,00,00,00
24965276,00000023,false,Rx,0,5,28,CF,C2,00,45,00,00,00
