"Time Stamp",ID,Extended,Dir,Bus,LEN,D1,D2,D3,D4,D5,D6,D7,D8
19094754,00000023,false,Rx,0,5,28,CF,C2,00,45,00,00,00
6376,0000002F,false,Rx,0,5,23,BD,C1,05,58,00,00,00
46341,0000001B,false,Rx,0,3,25,FF,DA,00,00,00,00,00
76440,00000023,false,Rx,0,5,25,4A,BD,00,D2,00,00,00
126452,0000001B,false,Rx,0,3,26,FF,D9,00,00,00,00,00
156703,00000023,false,Rx,0,5,26,4E,BD,00,CD,00,00,00
206356,0000001B,false,Rx,0,3,28,FF,D7,00,00,00,00,00
236359,00000023,false,Rx,0,5,28,30,BD,00,E9,00,00,00
286324,0000001B,false,Rx,0,3,24,FF,DB,00,00,00,00,00
316632,00000023,false,Rx,0,5,24,DA,B8,00,48,00,00,00
366444,0000001B,false,Rx,0,3,27,FF,D8,00,00,00,00,00
396471,00000023,false,Rx,0,5,27,11,C2,00,05,00,00,00
446420,0000001B,false,Rx,0,3,B1,FF,4E,00,00,00,00,00
476399,00000023,false,Rx,0,5,B1,80,7F,04,4A,00,00,00
526284,0000002F,false,Rx,0,5,21,7D,BD,05,9E,00,00,00
566256,0000002F,false,Rx,0,5,22,8A,BD,0D,88,00,00,00
606411,0000002F,false,Rx,0,5,23,8A,C1,05,8B,00,00,00
646368,0000002F,false,Rx,0,5,25,4A,BD,05,CD,00,00,00
686403,0000002F,false,Rx,0,5,26,4E,BD,05,C8,00,00,00
726240,0000002F,false,Rx,0,5,28,30,BD,05,E4,00,00,00
766292,0000002F,false,Rx,0,5,24,DA,B8,05,43,00,00,00
806408,0000002F,false,Rx,0,5,27,11,C2,05,00,00,00,00
846531,0000002F,false,Rx,0,5,B1,FE,FF,00,4F,00,00,00
886447,0000001B,false,Rx,0,3,21,FF,DE,00,00,00,00,00
916362,00000023,false,Rx,0,3,21,7D,A3,00,00,00,00,00
966264,0000001B,false,Rx,0,3,22,FF,DD,00,00,00,00,00
996523,00000023,false,Rx,0,5,22,8A,BD,00,95,00,00,00
1046487,0000001B,false,Rx,0,3,23,FF,DC,00,00,00,00,00
1076506,00000023,false,Rx,0,5,23,8A,C1,00,90,00,00,00
1126359,0000002F,false,Rx,0,5,25,E1,C2,05,31,00,00,00
1166499,0000001B,false,Rx,0,3,26,FF,D9,00,00,00,00,00
1196526,00000023,false,Rx,0,5,26,4E,BD,00,CD,00,00,00
1246443,0000001B,false,Rx,0,3,28,FF,D7,00,00,00,00,00
1276446,00000023,false,Rx,0,5,28,30,BD,00,E9,00,00,00
1326739,0000001B,false,Rx,0,3,24,FF,DB,00,00,00,00,00
1356782,00000023,false,Rx,0,5,24,DA,B8,00,48,00,00,00
1406450,0000001B,false,Rx,0,3,27,FF,D8,00,00,00,00,00
1436485,00000023,false,Rx,0,5,27,11,C2,00,05,00,00,00
1486314,0000001B,false,Rx,0,3,B1,FF,4E,00,00,00,00,00
1516477,00000023,false,Rx,0,5,B1,80,7F,04,4A,00,00,00
1566442,0000001B,false,Rx,0,3,21,FF,DE,00,00,00,00,00
1596453,00000023,false,Rx,0,3,21,7D,A3,00,00,00,00,00
1646561,0000001B,false,Rx,0,3,22,FF,DD,00,00,00,00,00
1676476,00000023,false,Rx,0,5,22,8A,BD,00,95,00,00,00
1726512,0000002F,false,Rx,0,5,23,12,C3,05,02,00,00,00
1766412,0000001B,false,Rx,0,3,25,FF,DA,00,00,00,00,00
1796566,00000023,false,Rx,0,5,25,D6,BD,00,46,00,00,00
2246604,0000001B,false,Rx,0,3,22,FF,DD,00,00,00,00,00
2276662,00000023,false,Rx,0,5,22,8A,BD,00,95,00,00,00
2326546,0000001B,false,Rx,0,3,23,FF,DC,00,00,00,00,00
2356797,00000023,false,Rx,0,5,23,0D,C2,00,0D,00,00,00
2406426,0000001B,false,Rx,0,3,25,FF,DA,00,00,00,00,00
2436597,00000023,false,Rx,0,7,25,70,BE,00,AB,C0,5C,00
2646529,0000001B,false,Rx,0,3,24,FF,DB,00,00,00,00,00
2677029,00000023,false,Rx,0,5,24,DA,B8,00,48,00,00,00
2726435,0000001B,false,Rx,0,3,27,FF,D8,00,00,00,00,00
2756805,00000023,false,Rx,0,5,27,7B,C1,00,9B,00,00,00
2806403,0000001B,false,Rx,0,3,B1,FF,4E,00,00,00,00,00
2836486,00000023,false,Rx,0,5,B1,80,7F,04,4A,00,00,00
2886396,0000001B,false,Rx,0,3,21,FF,DE,00,00,00,00,00
2916480,00000023,false,Rx,0,3,21,7D,A3,00,00,00,00,00
2966533,0000001B,false,Rx,0,3,22,FF,DD,00,00,00,00,00
2996521,00000023,false,Rx,0,5,22,8A,BD,00,95,00,00,00
3046589,0000001B,false,Rx,0,3,23,FF,DC,00,00,00,00,00
3076640,00000023,false,Rx,0,5,23,BA,C2,00,5F,00,00,00
3126461,0000001B,false,Rx,0,3,25,FF,DA,00,00,00,00,00
3156857,00000023,false,Rx,0,5,25,1D,BF,00,FD,00,00,00
3206998,0000001B,false,Rx,0,3,26,FF,D9,00,00,00,00,00
3236649,00000023,false,Rx,0,5,26,4E,BD,00,CD,00,00,00
3286486,0000001B,false,Rx,0,3,28,FF,D7,00,00,00,00,00
3316482,00000023,false,Rx,0,5,28,6A,BE,00,AE,00,00,00
3366550,0000001B,false,Rx,0,3,24,FF,DB,00,00,00,00,00
3396721,00000023,false,Rx,0,5,24,DA,B8,00,48,00,00,00
3446685,0000001B,false,Rx,0,3,27,FF,D8,00,00,00,00,00
3476593,00000023,false,Rx,0,5,27,CE,C0,00,49,00,00,00
3526557,0000001B,false,Rx,0,3,B1,FF,4E,00,00,00,00,00
3556761,00000023,false,Rx,0,5,B1,80,7F,04,4A,00,00,00
3606494,0000001B,false,Rx,0,3,21,FF,DE,00,00,00,00,00
3636641,00000023,false,Rx,0,3,21,7D,A3,00,00,00,00,00
3686470,0000001B,false,Rx,0,3,22,FF,DD,00,00,00,00,00
3716625,00000023,false,Rx,0,5,22,8A,BD,00,95,00,00,00
3766660,0000001B,false,Rx,0,3,23,FF,DC,00,00,00,00,00
3796544,00000023,false,Rx,0,5,23,12,C3,00,07,00,00,00
3846597,0000001B,false,Rx,0,3,25,FF,DA,00,00,00,00,00
3876608,00000023,false,Rx,0,5,25,CA,BF,00,50,00,00,00
3926573,0000001B,false,Rx,0,3,26,FF,D9,00,00,00,00,00
3956618,00000023,false,Rx,0,5,26,4E,BD,00,CD,00,00,00
4006645,0000001B,false,Rx,0,3,28,FF,D7,00,00,00,00,00
4036712,00000023,false,Rx,0,5,28,17,BF,00,01,00,00,00
4086596,0000001B,false,Rx,0,3,24,FF,DB,00,00,00,00,00
4116464,00000023,false,Rx,0,5,24,DA,B8,00,48,00,00,00
4166660,0000001B,false,Rx,0,3,27,FF,D8,00,00,00,00,00
4196727,00000023,false,Rx,0,5,27,21,C0,00,F6,00,00,00
4246747,0000001B,false,Rx,0,3,B1,FF,4E,00,00,00,00,00
4276693,00000023,false,Rx,0,5,B1,80,7F,04,4A,00,00,00
4326721,0000001B,false,Rx,0,3,21,FF,DE,00,00,00,00,00
4357078,00000023,false,Rx,0,3,21,7D,A3,00,00,00,00,00
4406689,0000001B,false,Rx,0,3,22,FF,DD,00,00,00,00,00
4436597,00000023,false,Rx,0,5,22,8A,BD,00,95,00,00,00
4486522,0000002F,false,Rx,0,5,23,6A,C3,05,A9,00,00,00
4526582,0000001B,false,Rx,0,3,25,FF,DA,00,00,00,00,00
4556810,00000023,false,Rx,0,5,25,6E,C0,00,AB,00,00,00
4606543,0000001B,false,Rx,0,3,26,FF,D9,00,00,00,00,00
4636658,00000023,false,Rx,0,5,26,4E,BD,00,CD,00,00,00
4686662,0000001B,false,Rx,0,3,28,FF,D7,00,00,00,00,00
4716522,00000023,false,Rx,0,5,28,BB,BF,00,5C,00,00,00
4766758,0000001B,false,Rx,0,3,24,FF,DB,00,00,00,00,00
4796922,00000023,false,Rx,0,5,24,DA,B8,00,48,00,00,00
4846624,0000001B,false,Rx,0,3,27,FF,D8,00,00,00,00,00
4876611,00000023,false,Rx,0,5,27,7E,BF,00,9A,00,00,00
4926743,0000001B,false,Rx,0,3,B1,FF,4E,00,00,00,00,00
4956691,00000023,false,Rx,0,5,B1,80,7F,04,4A,00,00,00
5006719,0000001B,false,Rx,0,3,21,FF,DE,00,00,00,00,00
5036619,00000023,false,Rx,0,3,21,7D,A3,00,00,00,00,00
5086750,0000001B,false,Rx,0,3,22,FF,DD,00,00,00,00,00
5116697,00000023,false,Rx,0,5,22,8A,BD,00,95,00,00,00
5166701,0000001B,false,Rx,0,3,23,FF,DC,00,00,00,00,00
5196728,00000023,false,Rx,0,5,23,3C,C3,40,9C,00,00,00
5246677,0000001B,false,Rx,0,3,25,FF,DA,00,00,00,00,00
5276728,00000023,false,Rx,0,5,25,1B,C1,00,FD,00,00,00
5326869,0000001B,false,Rx,0,3,26,FF,D9,00,00,00,00,00
5356825,00000023,false,Rx,0,5,26,4E,BD,00,CD,00,00,00
5406765,0000001B,false,Rx,0,3,28,FF,D7,00,00,00,00,00
5436712,00000023,false,Rx,0,5,28,68,C0,00,AE,00,00,00
5486763,0000001B,false,Rx,0,3,24,FF,DB,00,00,00,00,00
5516399,00000023,false,Rx,0,5,24,DA,B8,00,48,00,00,00
5566603,0000002F,false,Rx,0,5,27,C2,BD,05,53,00,00,00
5606662,0000002F,false,Rx,0,5,B1,FE,FF,00,4F,00,00,00
5646650,0000002F,false,Rx,0,5,21,7D,BD,05,9E,00,00,00
5686487,0000002F,false,Rx,0,5,22,8A,BD,0D,88,00,00,00
5726571,0000002E,false,Rx,0,5,23,FE,FF,FF,DD,00,00,00
5756798,0000001B,false,Rx,0,3,23,FF,DC,00,00,00,00,00
5786610,00000023,false,Rx,0,5,23,3C,C3,02,DA,00,00,00
5836718,0000002F,false,Rx,0,5,25,E1,C2,05,31,00,00,00
5876737,0000002F,false,Rx,0,5,26,4E,BD,05,C8,00,00,00
5916653,0000002F,false,Rx,0,5,28,FB,C2,05,14,00,00,00
5956872,0000002F,false,Rx,0,5,24,DA,B8,05,43,00,00,00
5996788,0000001B,false,Rx,0,3,27,FF,D8,00,00,00,00,00
6026687,00000023,false,Rx,0,5,27,6A,BE,00,AF,00,00,00
6076819,0000001B,false,Rx,0,3,B1,FF,4E,00,00,00,00,00
6106758,00000023,false,Rx,0,5,B1,80,7F,04,4A,00,00,00
6156899,0000001B,false,Rx,0,3,21,FF,DE,00,00,00,00,00
6186718,00000023,false,Rx,0,3,21,7D,A3,00,00,00,00,00
6236683,0000001B,false,Rx,0,3,22,FF,DD,00,00,00,00,00
6266686,00000023,false,Rx,0,5,22,8A,BD,00,95,00,00,00
6316683,0000002C,false,Rx,0,5,23,E6,C2,FF,33,00,00,00
6346735,0000001B,false,Rx,0,3,23,FF,DC,00,00,00,00,00
6377027,00000023,false,Rx,0,5,23,E6,C2,00,33,00,00,00
6426664,0000001B,false,Rx,0,3,25,FF,DA,00,00,00,00,00
6460924,00000023,false,Rx,0,4,25,C2,00,E0,00,00,00,00
6506767,0000001B,false,Rx,0,3,26,FF,D9,00,00,00,00,00
6536810,00000023,false,Rx,0,5,26,4E,BD,00,CD,00,00,00
6586632,0000001B,false,Rx,0,3,28,FF,D7,00,00,00,00,00
6616818,00000023,false,Rx,0,5,28,84,C1,00,91,00,00,00
6666678,0000001B,false,Rx,0,3,24,FF,DB,00,00,00,00,00
6696833,00000023,false,Rx,0,5,24,DA,B8,00,48,00,00,00
6746798,0000001B,false,Rx,0,3,27,FF,D8,00,00,00,00,00
6776778,00000023,false,Rx,0,5,27,C2,BD,00,58,00,00,00
6826583,0000001B,false,Rx,0,3,B1,FF,4E,00,00,00,00,00
6856875,00000023,false,Rx,0,5,B1,80,7F,04,4A,00,00,00
6906799,0000001B,false,Rx,0,3,21,FF,DE,00,00,00,00,00
6936842,00000023,false,Rx,0,3,21,7D,A3,00,00,00,00,00
6986702,0000001B,false,Rx,0,3,22,FF,DD,00,00,00,00,00
7016745,00000023,false,Rx,0,5,22,8A,BD,00,95,00,00,00
7066718,0000002E,false,Rx,0,5,23,FC,FF,FF,DF,00,00,00
7096865,0000001B,false,Rx,0,3,23,FF,DC,00,00,00,00,00
7126788,00000023,false,Rx,0,5,23,E6,C2,00,33,00,00,00
7176896,0000001B,false,Rx,0,3,25,FF,DA,00,00,00,00,00
7206858,00000023,false,Rx,0,5,25,E1,C2,00,36,00,00,00
7256990,0000001B,false,Rx,0,3,26,FF,D9,00,00,00,00,00
7286634,00000023,false,Rx,0,5,26,4E,BD,00,CD,00,00,00
7336727,0000001B,false,Rx,0,3,28,FF,D7,00,00,00,00,00
7366730,00000023,false,Rx,0,5,28,38,C2,00,DC,00,00,00
7416679,0000001B,false,Rx,0,3,24,FF,DB,00,00,00,00,00
7446890,00000023,false,Rx,0,5,24,DA,B8,00,48,00,00,00
7486822,0000002F,false,Rx,0,5,27,6A,BD,05,AB,00,00,00
7526666,0000001B,false,Rx,0,3,B1,FF,4E,00,00,00,00,00
7557037,00000023,false,Rx,0,5,B1,80,7F,04,4A,00,00,00
7606857,0000001B,false,Rx,0,3,21,FF,DE,00,00,00,00,00
7636756,00000023,false,Rx,0,3,21,7D,A3,00,00,00,00,00
7686681,0000001B,false,Rx,0,3,22,FF,DD,00,00,00,00,00
7716828,00000023,false,Rx,0,5,22,8A,BD,00,95,00,00,00
7766872,0000001B,false,Rx,0,3,23,FF,DC,00,00,00,00,00
7796755,00000023,false,Rx,0,5,23,E6,C2,00,33,00,00,00
7846983,0000002F,false,Rx,0,5,25,39,C3,05,D8,00,00,00
7886732,0000001B,false,Rx,0,3,26,FF,D9,00,00,00,00,00
7916680,00000023,false,Rx,0,5,26,4E,BD,00,CD,00,00,00
7966717,0000001B,false,Rx,0,3,28,FF,D7,00,00,00,00,00
7996785,00000023,false,Rx,0,5,28,D0,C2,00,44,00,00,00
8047053,0000001B,false,Rx,0,3,24,FF,DB,00,00,00,00,00
8076840,00000023,false,Rx,0,5,24,DA,B8,00,48,00,00,00
8126797,0000001B,false,Rx,0,3,27,FF,D8,00,00,00,00,00
8157152,00000023,false,Rx,0,5,27,AB,BD,40,2F,00,00,00
8206828,0000001B,false,Rx,0,3,B1,FF,4E,00,00,00,00,00
8236855,00000023,false,Rx,0,5,B1,80,7F,04,4A,00,00,00
8286844,0000001B,false,Rx,0,3,21,FF,DE,00,00,00,00,00
8316926,00000023,false,Rx,0,3,21,7D,A3,00,00,00,00,00
8366787,0000001B,false,Rx,0,3,22,FF,DD,00,00,00,00,00
8397230,00000023,false,Rx,0,5,22,8A,BD,00,95,00,00,00
8447049,0000001B,false,Rx,0,3,23,FF,DC,00,00,00,00,00
8476829,00000023,false,Rx,0,5,23,E6,C2,00,33,00,00,00
8526770,0000001B,false,Rx,0,3,25,FF,DA,00,00,00,00,00
8556982,00000023,false,Rx,0,5,25,2C,C3,40,AA,00,00,00
8606890,0000001B,false,Rx,0,3,26,FF,D9,00,00,00,00,00
8636758,00000023,false,Rx,0,5,26,4E,BD,00,CD,00,00,00
8686842,0000001B,false,Rx,0,3,28,FF,D7,00,00,00,00,00
