"Time Stamp",ID,Extended,Dir,Bus,LEN,D1,D2,D3,D4,D5,D6,D7,D8
15532005,00000023,false,Rx,0,5,22,8A,BD,00,95,00,00,00
11004,0000001B,false,Rx,0,3,28,FF,D7,00,00,00,00,00
40864,00000023,false,Rx,0,5,28,CF,C2,00,45,00,00,00
91094,0000001B,false,Rx,0,3,24,FF,DB,00,00,00,00,00
120866,00000023,false,Rx,0,5,24,DA,B8,00,48,00,00,00
170775,0000001B,false,Rx,0,3,27,FF,D8,00,00,00,00,00
201043,00000023,false,Rx,0,5,27,EE,BD,00,2C,00,00,00
250967,0000001B,false,Rx,0,3,B1,FF,4E,00,00,00,00,00
280874,00000023,false,Rx,0,5,B1,80,7F,04,4A,00,00,00
330815,0000001B,false,Rx,0,3,21,FF,DE,00,00,00,00,00
360787,00000023,false,Rx,0,5,21,81,C2,00,9A,00,00,00
411023,0000001B,false,Rx,0,3,22,FF,DD,00,00,00,00,00
440930,00000023,false,Rx,0,5,22,8A,BD,00,95,00,00,00
491207,0000001B,false,Rx,0,3,23,FF,DC,00,00,00,00,00
520875,00000023,false,Rx,0,5,23,E6,C2,00,33,00,00,00
570785,0000001B,false,Rx,0,3,25,FF,DA,00,00,00,00,00
601163,00000023,false,Rx,0,5,25,4A,BD,00,D2,00,00,00
650959,0000001B,false,Rx,0,3,26,FF,D9,00,00,00,00,00
680859,00000023,false,Rx,0,5,26,4E,BD,00,CD,00,00,00
730792,0000001B,false,Rx,0,3,28,FF,D7,00,00,00,00,00
760978,00000023,false,Rx,0,5,28,CF,C2,00,45,00,00,00
811006,0000001B,false,Rx,0,3,24,FF,DB,00,00,00,00,00
840889,00000023,false,Rx,0,5,24,DA,B8,00,48,00,00,00
890982,0000001B,false,Rx,0,3,27,FF,D8,00,00,00,00,00
920881,00000023,false,Rx,0,5,27,EE,BD,00,2C,00,00,00
970814,0000001B,false,Rx,0,3,B1,FF,4E,00,00,00,00,00
1001187,00000023,false,Rx,0,5,B1,80,7F,04,4A,00,00,00
1050998,0000002F,false,Rx,0,5,21,51,BD,05,CA,00,00,00
1091002,0000001B,false,Rx,0,3,22,FF,DD,00,00,00,00,00
1120846,00000023,false,Rx,0,5,22,8A,BD,00,95,00,00,00
1170915,0000001B,false,Rx,0,3,23,FF,DC,00,00,00,00,00
1201286,00000023,false,Rx,0,5,23,E6,C2,00,33,00,00,00
1250946,0000002F,false,Rx,0,5,25,E1,C2,05,31,00,00,00
1291023,0000001B,false,Rx,0,3,26,FF,D9,00,00,00,00,00
1320898,00000023,false,Rx,0,5,26,4E,BD,00,CD,00,00,00
1371006,0000001B,false,Rx,0,3,28,FF,D7,00,00,00,00,00
1401106,00000023,false,Rx,0,5,28,CF,C2,00,45,00,00,00
1451030,0000001B,false,Rx,0,3,24,FF,DB,00,00,00,00,00
1480953,00000023,false,Rx,0,5,24,DA,B8,00,48,00,00,00
1530894,0000001B,false,Rx,0,3,27,FF,D8,00,00,00,00,00
1561056,00000023,false,Rx,0,5,27,EE,BD,00,2C,00,00,00
1611084,0000001B,false,Rx,0,3,B1,FF,4E,00,00,00,00,00
1640952,00000023,false,Rx,0,5,B1,80,7F,04,4A,00,00,00
1691060,0000001B,false,Rx,0,3,21,FF,DE,00,00,00,00,00
1720936,00000023,false,Rx,0,5,21,F4,C1,00,28,00,00,00
1770853,0000001B,false,Rx,0,3,22,FF,DD,00,00,00,00,00
1801216,00000023,false,Rx,0,5,22,8A,BD,00,95,00,00,00
1850997,0000001B,false,Rx,0,3,23,FF,DC,00,00,00,00,00
1881063,00000023,false,Rx,0,5,23,E6,C2,00,33,00,00,00
1930924,0000001B,false,Rx,0,3,25,FF,DA,00,00,00,00,00
1960872,00000023,false,Rx,0,5,25,DF,BD,00,3D,00,00,00
2011108,0000001B,false,Rx,0,3,26,FF,D9,00,00,00,00,00
2040968,00000023,false,Rx,0,5,26,4E,BD,00,CD,00,00,00
2090989,0000001B,false,Rx,0,3,28,FF,D7,00,00,00,00,00
2120969,00000023,false,Rx,0,5,28,CF,C2,00,45,00,00,00
2171101,0000001B,false,Rx,0,3,24,FF,DB,00,00,00,00,00
2201185,00000023,false,Rx,0,5,24,DA,B8,00,48,00,00,00
2251124,0000001B,false,Rx,0,3,27,FF,D8,00,00,00,00,00
2281047,00000023,false,Rx,0,5,27,EE,BD,00,2C,00,00,00
2331051,0000001B,false,Rx,0,3,B1,FF,4E,00,00,00,00,00
2360919,00000023,false,Rx,0,5,B1,80,7F,04,4A,00,00,00
2410964,0000001B,false,Rx,0,3,21,FF,DE,00,00,00,00,00
2441119,00000023,false,Rx,0,5,21,47,C1,00,D5,00,00,00
2491147,0000001B,false,Rx,0,3,22,FF,DD,00,00,00,00,00
2521046,00000023,false,Rx,0,5,22,8A,BD,00,95,00,00,00
2571034,0000001B,false,Rx,0,3,23,FF,DC,00,00,00,00,00
2601118,00000023,false,Rx,0,5,23,E6,C2,00,33,00,00,00
2650955,0000001B,false,Rx,0,3,25,FF,DA,00,00,00,00,00
2680904,00000023,false,Rx,0,5,25,8C,BE,00,8F,00,00,00
2731139,0000001B,false,Rx,0,3,26,FF,D9,00,00,00,00,00
2761062,00000023,false,Rx,0,5,26,4E,BD,00,CD,00,00,00
2811155,0000001B,false,Rx,0,3,28,FF,D7,00,00,00,00,00
2841031,00000023,false,Rx,0,5,28,CF,C2,00,45,00,00,00
2891154,0000001B,false,Rx,0,3,24,FF,DB,00,00,00,00,00
2921030,00000023,false,Rx,0,5,24,DA,B8,00,48,00,00,00
2970971,0000001B,false,Rx,0,3,27,FF,D8,00,00,00,00,00
3001432,00000023,false,Rx,0,5,27,EE,BD,00,2C,00,00,00
3051171,0000001B,false,Rx,0,3,B1,FF,4E,00,00,00,00,00
3081134,00000023,false,Rx,0,5,B1,80,7F,04,4A,00,00,00
3131161,0000001B,false,Rx,0,3,21,FF,DE,00,00,00,00,00
3161084,00000023,false,Rx,0,5,21,9A,C0,00,83,00,00,00
3211025,0000001B,false,Rx,0,3,22,FF,DD,00,00,00,00,00
3241156,00000023,false,Rx,0,5,22,8A,BD,00,95,00,00,00
3291082,0000001B,false,Rx,0,3,23,FF,DC,00,00,00,00,00
3321125,00000023,false,Rx,0,5,23,E6,C2,00,33,00,00,00
3371152,0000001B,false,Rx,0,3,25,FF,DA,00,00,00,00,00
3401276,00000023,false,Rx,0,5,25,3A,BF,00,E0,00,00,00
3451048,0000001B,false,Rx,0,3,26,FF,D9,00,00,00,00,00
3481051,00000023,false,Rx,0,5,26,4E,BD,00,CD,00,00,00
3530992,0000001B,false,Rx,0,3,28,FF,D7,00,00,00,00,00
3561261,00000023,false,Rx,0,5,28,CF,C2,00,45,00,00,00
3611121,0000001B,false,Rx,0,3,24,FF,DB,00,00,00,00,00
3641109,00000023,false,Rx,0,5,24,DA,B8,00,48,00,00,00
3691217,0000001B,false,Rx,0,3,27,FF,D8,00,00,00,00,00
3721093,00000023,false,Rx,0,5,27,EE,BD,00,2C,00,00,00
3771034,0000001B,false,Rx,0,3,B1,FF,4E,00,00,00,00,00
3801238,00000023,false,Rx,0,5,B1,80,7F,04,4A,00,00,00
3851161,0000001B,false,Rx,0,3,21,FF,DE,00,00,00,00,00
3881422,00000023,false,Rx,0,5,21,ED,BF,00,31,00,00,00
3931051,0000001B,false,Rx,0,3,22,FF,DD,00,00,00,00,00
3961046,00000023,false,Rx,0,5,22,8A,BD,00,95,00,00,00
4011076,0000001B,false,Rx,0,3,23,FF,DC,00,00,00,00,00
4041008,00000023,false,Rx,0,5,23,E6,C2,00,33,00,00,00
4091236,0000001B,false,Rx,0,3,25,FF,DA,00,00,00,00,00
4121128,00000023,false,Rx,0,5,25,E7,BF,00,33,00,00,00
4171108,0000001B,false,Rx,0,3,26,FF,D9,00,00,00,00,00
4201272,00000023,false,Rx,0,5,26,4E,BD,00,CD,00,00,00
4251084,0000002F,false,Rx,0,5,28,CF,C2,05,40,00,00,00
4291033,0000002F,false,Rx,0,5,24,DA,B8,05,43,00,00,00
4330997,0000002F,false,Rx,0,5,27,EE,BD,05,27,00,00,00
4371160,0000002F,false,Rx,0,5,B1,FE,FF,00,4F,00,00,00
4411588,0000002F,false,Rx,0,5,21,51,BD,05,CA,00,00,00
4451064,0000002F,false,Rx,0,5,22,8A,BD,0D,88,00,00,00
4491324,0000002F,false,Rx,0,5,23,E6,C2,05,2E,00,00,00
4531112,0000002F,false,Rx,0,5,25,E1,C2,05,31,00,00,00
4571365,0000002F,false,Rx,0,5,26,4E,BD,05,C8,00,00,00
4611113,0000001B,false,Rx,0,3,28,FF,D7,00,00,00,00,00
4641093,00000023,false,Rx,0,5,28,CF,C2,00,45,00,00,00
4691154,0000001B,false,Rx,0,3,24,FF,DB,00,00,00,00,00
4721158,00000023,false,Rx,0,5,24,DA,B8,00,48,00,00,00
4771146,0000001B,false,Rx,0,3,27,FF,D8,00,00,00,00,00
4801405,00000023,false,Rx,0,5,27,EE,BD,00,2C,00,00,00
4851201,0000001B,false,Rx,0,3,B1,FF,4E,00,00,00,00,00
4881100,00000023,false,Rx,0,5,B1,80,7F,04,4A,00,00,00
4931232,0000001B,false,Rx,0,3,21,FF,DE,00,00,00,00,00
4961123,00000023,false,Rx,0,5,21,E9,BE,00,36,00,00,00
5011216,0000001B,false,Rx,0,3,22,FF,DD,00,00,00,00,00
5041235,00000023,false,Rx,0,5,22,8A,BD,00,95,00,00,00
5091239,0000001B,false,Rx,0,3,23,FF,DC,00,00,00,00,00
5121115,00000023,false,Rx,0,5,23,E6,C2,00,33,00,00,00
5171223,0000001B,false,Rx,0,3,25,FF,DA,00,00,00,00,00
5201466,00000023,false,Rx,0,5,25,EB,C0,00,2E,00,00,00
5251095,0000001B,false,Rx,0,3,26,FF,D9,00,00,00,00,00
5281265,00000023,false,Rx,0,5,26,4E,BD,00,CD,00,00,00
5331102,0000001B,false,Rx,0,3,28,FF,D7,00,00,00,00,00
5361067,00000023,false,Rx,0,5,28,CF,C2,00,45,00,00,00
5411279,0000001B,false,Rx,0,3,24,FF,DB,00,00,00,00,00
5441154,00000023,false,Rx,0,5,24,DA,B8,00,48,00,00,00
5491263,0000001B,false,Rx,0,3,27,FF,D8,00,00,00,00,00
5521321,00000023,false,Rx,0,5,27,EE,BD,00,2C,00,00,00
5571221,0000001B,false,Rx,0,3,B1,FF,4E,00,00,00,00,00
5601281,00000023,false,Rx,0,5,B1,80,7F,04,4A,00,00,00
5651087,0000001B,false,Rx,0,3,21,FF,DE,00,00,00,00,00
5681210,00000023,false,Rx,0,5,21,3C,BE,00,E3,00,00,00
5731198,0000001B,false,Rx,0,3,22,FF,DD,00,00,00,00,00
5761218,00000023,false,Rx,0,5,22,8A,BD,00,95,00,00,00
5811143,0000001B,false,Rx,0,3,23,FF,DC,00,00,00,00,00
5841235,00000023,false,Rx,0,5,23,E6,C2,00,33,00,00,00
5891152,0000001B,false,Rx,0,3,25,FF,DA,00,00,00,00,00
5921315,00000023,false,Rx,0,5,25,98,C1,00,80,00,00,00
5971175,0000001B,false,Rx,0,3,26,FF,D9,00,00,00,00,00
6001732,00000023,false,Rx,0,5,26,4E,BD,00,CD,00,00,00
6051200,0000001B,false,Rx,0,3,28,FF,D7,00,00,00,00,00
6081204,00000023,false,Rx,0,5,28,CF,C2,00,45,00,00,00
6131145,0000001B,false,Rx,0,3,24,FF,DB,00,00,00,00,00
6161307,00000023,false,Rx,0,5,24,DA,B8,00,48,00,00,00
6211248,0000001B,false,Rx,0,3,27,FF,D8,00,00,00,00,00
6241228,00000023,false,Rx,0,5,27,EE,BD,00,2C,00,00,00
6291297,0000001B,false,Rx,0,3,B1,FF,4E,00,00,00,00,00
6321356,00000023,false,Rx,0,5,B1,80,7F,04,4A,00,00,00
6371240,0000001B,false,Rx,0,3,21,FF,DE,00,00,00,00,00
6401444,00000023,false,Rx,0,5,21,8F,BD,00,91,00,00,00
6451200,0000001B,false,Rx,0,3,22,FF,DD,00,00,00,00,00
6481347,00000023,false,Rx,0,5,22,8A,BD,00,95,00,00,00
6531392,0000001B,false,Rx,0,3,23,FF,DC,00,00,00,00,00
6561132,00000023,false,Rx,0,5,23,E6,C2,00,33,00,00,00
6611345,0000001B,false,Rx,0,3,25,FF,DA,00,00,00,00,00
6641348,00000023,false,Rx,0,5,25,45,C2,00,D2,00,00,00
6691368,0000001B,false,Rx,0,3,26,FF,D9,00,00,00,00,00
6721259,00000023,false,Rx,0,5,26,4E,BD,00,CD,00,00,00
6771201,0000001B,false,Rx,0,3,28,FF,D7,00,00,00,00,00
6801388,00000023,false,Rx,0,5,28,CF,C2,00,45,00,00,00
6851273,0000001B,false,Rx,0,3,24,FF,DB,00,00,00,00,00
6881339,00000023,false,Rx,0,5,24,DA,B8,00,48,00,00,00
6931145,0000001B,false,Rx,0,3,27,FF,D8,00,00,00,00,00
6961268,00000023,false,Rx,0,5,27,EE,BD,00,2C,00,00,00
7011400,0000001B,false,Rx,0,3,B1,FF,4E,00,00,00,00,00
7041275,00000023,false,Rx,0,5,B1,80,7F,04,4A,00,00,00
7091384,0000001B,false,Rx,0,3,21,FF,DE,00,00,00,00,00
7121283,00000023,false,Rx,0,5,21,51,BD,00,CF,00,00,00
7171271,0000001B,false,Rx,0,3,22,FF,DD,00,00,00,00,00
7201459,00000023,false,Rx,0,5,22,8A,BD,00,95,00,00,00
7251184,0000001B,false,Rx,0,3,23,FF,DC,00,00,00,00,00
7281347,00000023,false,Rx,0,5,23,E6,C2,00,33,00,00,00
7331375,0000001B,false,Rx,0,3,25,FF,DA,00,00,00,00,00
7361313,00000023,false,Rx,0,5,25,E1,C2,00,36,00,00,00
7411254,0000001B,false,Rx,0,3,26,FF,D9,00,00,00,00,00
7441234,00000023,false,Rx,0,5,26,4E,BD,00,CD,00,00,00
7491303,0000001B,false,Rx,0,3,28,FF,D7,00,00,00,00,00
7521322,00000023,false,Rx,0,5,28,CF,C2,00,45,00,00,00
7571350,0000001B,false,Rx,0,3,24,FF,DB,00,00,00,00,00
7601722,00000023,false,Rx,0,5,24,DA,B8,00,48,00,00,00
7651310,0000001B,false,Rx,0,3,27,FF,D8,00,00,00,00,00
7681155,00000023,false,Rx,0,5,27,EE,BD,00,2C,00,00,00
7731223,0000001B,false,Rx,0,3,B1,FF,4E,00,00,00,00,00
7761211,00000023,false,Rx,0,5,B1,80,7F,04,4A,00,00,00
7811248,0000002F,false,Rx,0,5,21,F9,BC,05,23,00,00,00
7851395,0000001B,false,Rx,0,3,22,FF,DD,00,00,00,00,00
7881318,00000023,false,Rx,0,5,22,8A,BD,00,95,00,00,00
7931283,0000001B,false,Rx,0,3,23,FF,DC,00,00,00,00,00
7961302,00000023,false,Rx,0,5,23,E6,C2,00,33,00,00,00
8011402,0000002F,false,Rx,0,5,25,39,C3,05,D8,00,00,00
8051430,0000001B,false,Rx,0,3,26,FF,D9,00,00,00,00,00
8081353,00000023,false,Rx,0,5,26,4E,BD,00,CD,00,00,00
8131318,0000001B,false,Rx,0,3,28,FF,D7,00,00,00,00,00
8161337,00000023,false,Rx,0,5,28,CF,C2,00,45,00,00,00
8211469,0000001B,false,Rx,0,3,24,FF,DB,00,00,00,00,00
8241368,00000023,false,Rx,0,5,24,DA,B8,00,48,00,00,00
8291317,0000001B,false,Rx,0,3,27,FF,D8,00,00,00,00,00
8321440,00000023,false,Rx,0,5,27,EE,BD,00,2C,00,00,00
8371301,0000001B,false,Rx,0,3,B1,FF,4E,00,00,00,00,00
8401489,00000023,false,Rx,0,5,B1,80,7F,04,4A,00,00,00
8451412,0000001B,false,Rx,0,3,21,FF,DE,00,00,00,00,00
8481312,00000023,false,Rx,0,5,21,33,BD,40,AD,00,00,00
8531467,0000001B,false,Rx,0,3,22,FF,DD,00,00,00,00,00
