"Time Stamp",ID,Extended,Dir,Bus,LEN,D1,D2,D3,D4,D5,D6,D7,D8
1561234,0000001B,false,Rx,0,3,21,FF,DE,00,00,00,00,00
1591342,00000023,false,Rx,0,5,21,51,BD,00,CF,00,00,00
1641283,0000001B,false,Rx,0,3,22,FF,DD,00,00,00,00,00
1671679,00000023,false,Rx,0,5,22,8A,BD,00,95,00,00,00
1721196,0000001B,false,Rx,0,3,23,FF,DC,00,00,00,00,00
1751288,00000023,false,Rx,0,5,23,E6,C2,00,33,00,00,00
1801404,0000001B,false,Rx,0,3,25,FF,DA,00,00,00,00,00
1831342,00000023,false,Rx,0,5,25,E1,C2,00,36,00,00,00
1881370,0000001B,false,Rx,0,3,26,FF,D9,00,00,00,00,00
1911558,00000023,false,Rx,0,5,26,4E,BD,00,CD,00,00,00
1961354,0000001B,false,Rx,0,3,28,FF,D7,00,00,00,00,00
1991405,00000023,false,Rx,0,5,28,CF,C2,00,45,00,00,00
2041432,0000001B,false,Rx,0,3,24,FF,DB,00,00,00,00,00
2071196,00000023,false,Rx,0,5,24,25,C1,00,F4,00,00,00
2121265,0000001B,false,Rx,0,3,27,FF,D8,00,00,00,00,00
2151420,00000023,false,Rx,0,5,27,EE,BD,00,2C,00,00,00
2201928,0000001B,false,Rx,0,3,B1,FF,4E,00,00,00,00,00
2231323,00000023,false,Rx,0,5,B1,80,7F,04,4A,00,00,00
2281249,0000002F,false,Rx,0,5,21,F9,BC,05,23,00,00,00
2321357,0000001B,false,Rx,0,3,22,FF,DD,00,00,00,00,00
2351329,00000023,false,Rx,0,5,22,8A,BD,00,95,00,00,00
2401437,0000001B,false,Rx,0,3,23,FF,DC,00,00,00,00,00
2431687,00000023,false,Rx,0,5,23,E6,C2,00,33,00,00,00
2481348,0000002F,false,Rx,0,5,25,39,C3,05,D8,00,00,00
2521352,0000001B,false,Rx,0,3,26,FF,D9,00,00,00,00,00
2551340,00000023,false,Rx,0,5,26,4E,BD,00,CD,00,00,00
2601408,0000001B,false,Rx,0,3,28,FF,D7,00,00,00,00,00
2631253,00000023,false,Rx,0,5,28,CF,C2,00,45,00,00,00
2681298,0000001B,false,Rx,0,3,24,FF,DB,00,00,00,00,00
2711709,00000023,false,Rx,0,5,24,8B,C0,00,8F,00,00,00
2761409,0000001B,false,Rx,0,3,27,FF,D8,00,00,00,00,00
2791389,00000023,false,Rx,0,5,27,EE,BD,00,2C,00,00,00
2841497,0000001B,false,Rx,0,3,B1,FF,4E,00,00,00,00,00
2871452,00000023,false,Rx,0,5,B1,80,7F,04,4A,00,00,00
2921456,0000001B,false,Rx,0,3,21,FF,DE,00,00,00,00,00
2951483,00000023,false,Rx,0,5,21,38,BD,40,A8,00,00,00
3001456,0000001B,false,Rx,0,3,22,FF,DD,00,00,00,00,00
3031371,00000023,false,Rx,0,5,22,8A,BD,00,95,00,00,00
3081312,0000001B,false,Rx,0,3,23,FF,DC,00,00,00,00,00
3111476,00000023,false,Rx,0,5,23,E6,C2,00,33,00,00,00
3161282,0000001B,false,Rx,0,3,25,FF,DA,00,00,00,00,00
3191373,00000023,false,Rx,0,5,25,2E,C3,40,A8,00,00,00
3241505,0000001B,false,Rx,0,3,26,FF,D9,00,00,00,00,00
3271261,00000023,false,Rx,0,5,26,4E,BD,00,CD,00,00,00
3321338,0000001B,false,Rx,0,3,28,FF,D7,00,00,00,00,00
3351492,00000023,false,Rx,0,5,28,CF,C2,00,45,00,00,00
3401504,0000001B,false,Rx,0,3,24,FF,DB,00,00,00,00,00
3431483,00000023,false,Rx,0,5,24,DE,BF,00,3D,00,00,00
3481312,0000001B,false,Rx,0,3,27,FF,D8,00,00,00,00,00
3511523,00000023,false,Rx,0,5,27,EE,BD,00,2C,00,00,00
3561423,0000001B,false,Rx,0,3,B1,FF,4E,00,00,00,00,00
3591427,00000023,false,Rx,0,5,B1,80,7F,04,4A,00,00,00
3641360,0000002E,false,Rx,0,5,21,FE,FF,FF,DF,00,00,00
3671371,0000001B,false,Rx,0,3,21,FF,DE,00,00,00,00,00
3701495,00000023,false,Rx,0,5,21,38,BD,02,E6,00,00,00
3751499,0000001B,false,Rx,0,3,22,FF,DD,00,00,00,00,00
3781422,00000023,false,Rx,0,5,22,8A,BD,00,95,00,00,00
3831418,0000001B,false,Rx,0,3,23,FF,DC,00,00,00,00,00
3861461,00000023,false,Rx,0,5,23,E6,C2,00,33,00,00,00
3911634,0000002E,false,Rx,0,5,25,FE,FF,FF,DB,00,00,00
3941461,0000001B,false,Rx,0,3,25,FF,DA,00,00,00,00,00
3971344,00000023,false,Rx,0,5,25,2E,C3,02,E6,00,00,00
4021413,0000001B,false,Rx,0,3,26,FF,D9,00,00,00,00,00
4051568,00000023,false,Rx,0,5,26,4E,BD,00,CD,00,00,00
4101756,0000001B,false,Rx,0,3,28,FF,D7,00,00,00,00,00
4131288,00000023,false,Rx,0,5,28,CF,C2,00,45,00,00,00
4181524,0000001B,false,Rx,0,3,24,FF,DB,00,00,00,00,00
4211584,00000023,false,Rx,0,5,24,23,BF,00,F8,00,00,00
4261508,0000001B,false,Rx,0,3,27,FF,D8,00,00,00,00,00
4291408,00000023,false,Rx,0,5,27,EE,BD,00,2C,00,00,00
4341364,0000001B,false,Rx,0,3,B1,FF,4E,00,00,00,00,00
4371336,00000023,false,Rx,0,5,B1,80,7F,04,4A,00,00,00
4421421,0000002C,false,Rx,0,5,21,7D,BD,FF,A3,00,00,00
4451856,0000001B,false,Rx,0,3,21,FF,DE,00,00,00,00,00
4481467,00000023,false,Rx,0,3,21,7D,A3,00,00,00,00,00
4531424,0000001B,false,Rx,0,3,22,FF,DD,00,00,00,00,00
4561428,00000023,false,Rx,0,5,22,8A,BD,00,95,00,00,00
4611592,0000001B,false,Rx,0,3,23,FF,DC,00,00,00,00,00
4641452,00000023,false,Rx,0,5,23,E6,C2,00,33,00,00,00
4691449,0000002C,false,Rx,0,5,25,B5,C2,FF,62,00,00,00
4721468,0000001B,false,Rx,0,3,25,FF,DA,00,00,00,00,00
4751456,00000023,false,Rx,0,5,25,B5,C2,00,62,00,00,00
4801564,0000001B,false,Rx,0,3,26,FF,D9,00,00,00,00,00
4831479,00000023,false,Rx,0,5,26,4E,BD,00,CD,00,00,00
4881444,0000001B,false,Rx,0,3,28,FF,D7,00,00,00,00,00
4911584,00000023,false,Rx,0,5,28,CF,C2,00,45,00,00,00
4961468,0000001B,false,Rx,0,3,24,FF,DB,00,00,00,00,00
4991519,00000023,false,Rx,0,5,24,67,BE,00,B5,00,00,00
5041468,0000001B,false,Rx,0,3,27,FF,D8,00,00,00,00,00
5071503,00000023,false,Rx,0,5,27,EE,BD,00,2C,00,00,00
5121452,0000001B,false,Rx,0,3,B1,FF,4E,00,00,00,00,00
5151607,00000023,false,Rx,0,5,B1,80,7F,04,4A,00,00,00
5201764,0000002E,false,Rx,0,5,21,FC,FF,FF,E1,00,00,00
5231479,0000001B,false,Rx,0,3,21,FF,DE,00,00,00,00,00
5261459,00000023,false,Rx,0,3,21,7D,A3,00,00,00,00,00
5311600,0000001B,false,Rx,0,3,22,FF,DD,00,00,00,00,00
5341492,00000023,false,Rx,0,5,22,8A,BD,00,95,00,00,00
5391417,0000001B,false,Rx,0,3,23,FF,DC,00,00,00,00,00
5421572,00000023,false,Rx,0,5,23,E6,C2,00,33,00,00,00
5471401,0000002E,false,Rx,0,5,25,FC,FF,FF,DD,00,00,00
5501683,0000001B,false,Rx,0,3,25,FF,DA,00,00,00,00,00
5531494,00000023,false,Rx,0,5,25,B5,C2,00,62,00,00,00
5581626,0000001B,false,Rx,0,3,26,FF,D9,00,00,00,00,00
5611749,00000023,false,Rx,0,5,26,4E,BD,00,CD,00,00,00
5661673,0000001B,false,Rx,0,3,28,FF,D7,00,00,00,00,00
5691573,00000023,false,Rx,0,5,28,CF,C2,00,45,00,00,00
5741498,0000001B,false,Rx,0,3,24,FF,DB,00,00,00,00,00
5771517,00000023,false,Rx,0,5,24,AC,BD,00,71,00,00,00
5821450,0000001B,false,Rx,0,3,27,FF,D8,00,00,00,00,00
5851693,00000023,false,Rx,0,5,27,EE,BD,00,2C,00,00,00
5901499,0000001B,false,Rx,0,3,B1,FF,4E,00,00,00,00,00
5931471,00000023,false,Rx,0,5,B1,80,7F,04,4A,00,00,00
5981540,0000001B,false,Rx,0,3,21,FF,DE,00,00,00,00,00
6015870,00000023,false,Rx,0,3,21,7D,A3,00,00,00,00,00
6061634,0000001B,false,Rx,0,3,22,FF,DD,00,00,00,00,00
6091517,00000023,false,Rx,0,5,22,8A,BD,00,95,00,00,00
6141563,0000001B,false,Rx,0,3,23,FF,DC,00,00,00,00,00
6171670,00000023,false,Rx,0,5,23,E6,C2,00,33,00,00,00
6221403,0000002F,false,Rx,0,5,25,B5,C2,05,5D,00,00,00
6261519,0000002F,false,Rx,0,5,26,4E,BD,05,C8,00,00,00
6301499,0000002F,false,Rx,0,5,28,CF,C2,05,40,00,00,00
6341638,0000002F,false,Rx,0,4,24,AE,B8,6F,00,00,00,00
6381522,0000002F,false,Rx,0,5,27,EE,BD,05,27,00,00,00
6421510,0000002F,false,Rx,0,5,B1,FE,FF,00,4F,00,00,00
6461451,0000002F,false,Rx,0,5,21,7D,BD,05,9E,00,00,00
6501798,0000002F,false,Rx,0,5,22,8A,BD,0D,88,00,00,00
6541730,0000002F,false,Rx,0,5,23,E6,C2,05,2E,00,00,00
6581622,0000001B,false,Rx,0,3,25,FF,DA,00,00,00,00,00
6611705,00000023,false,Rx,0,5,25,B5,C2,00,62,00,00,00
6661566,0000001B,false,Rx,0,3,26,FF,D9,00,00,00,00,00
6691570,00000023,false,Rx,0,5,26,4E,BD,00,CD,00,00,00
6741662,0000001B,false,Rx,0,3,28,FF,D7,00,00,00,00,00
6771577,00000023,false,Rx,0,5,28,CF,C2,00,45,00,00,00
6821510,0000001B,false,Rx,0,3,24,FF,DB,00,00,00,00,00
6851586,00000023,false,Rx,0,5,24,A8,BC,00,76,00,00,00
6901639,0000001B,false,Rx,0,3,27,FF,D8,00,00,00,00,00
6931507,00000023,false,Rx,0,5,27,EE,BD,00,2C,00,00,00
6981704,0000001B,false,Rx,0,3,B1,FF,4E,00,00,00,00,00
7015891,00000023,false,Rx,0,5,B1,80,7F,04,4A,00,00,00
7061615,0000001B,false,Rx,0,3,21,FF,DE,00,00,00,00,00
7091642,00000023,false,Rx,0,3,21,7D,A3,00,00,00,00,00
7141797,0000001B,false,Rx,0,3,22,FF,DD,00,00,00,00,00
7171593,00000023,false,Rx,0,5,22,8A,BD,00,95,00,00,00
7221748,0000001B,false,Rx,0,3,23,FF,DC,00,00,00,00,00
7251632,00000023,false,Rx,0,5,23,E6,C2,00,33,00,00,00
7301724,0000001B,false,Rx,0,3,25,FF,DA,00,00,00,00,00
7331639,00000023,false,Rx,0,5,25,B5,C2,00,62,00,00,00
7381604,0000001B,false,Rx,0,3,26,FF,D9,00,00,00,00,00
7411808,00000023,false,Rx,0,5,26,4E,BD,00,CD,00,00,00
7461708,0000001B,false,Rx,0,3,28,FF,D7,00,00,00,00,00
7491607,00000023,false,Rx,0,5,28,CF,C2,00,45,00,00,00
7541637,0000001B,false,Rx,0,3,24,FF,DB,00,00,00,00,00
7571640,00000023,false,Rx,0,5,24,FB,BB,00,24,00,00,00
7621581,0000001B,false,Rx,0,3,27,FF,D8,00,00,00,00,00
7651681,00000023,false,Rx,0,5,27,EE,BD,00,2C,00,00,00
7701789,0000001B,false,Rx,0,3,B1,FF,4E,00,00,00,00,00
7731728,00000023,false,Rx,0,5,B1,80,7F,04,4A,00,00,00
7781756,0000001B,false,Rx,0,3,21,FF,DE,00,00,00,00,00
7811871,00000023,false,Rx,0,3,21,7D,A3,00,00,00,00,00
7861628,0000001B,false,Rx,0,3,22,FF,DD,00,00,00,00,00
7891631,00000023,false,Rx,0,5,22,8A,BD,00,95,00,00,00
7941700,0000001B,false,Rx,0,3,23,FF,DC,00,00,00,00,00
7971568,00000023,false,Rx,0,5,23,E6,C2,00,33,00,00,00
8021613,0000001B,false,Rx,0,3,25,FF,DA,00,00,00,00,00
8051705,00000023,false,Rx,0,5,25,B5,C2,00,62,00,00,00
8101653,0000001B,false,Rx,0,3,26,FF,D9,00,00,00,00,00
8131673,00000023,false,Rx,0,5,26,4E,BD,00,CD,00,00,00
8181614,0000001B,false,Rx,0,3,28,FF,D7,00,00,00,00,00
8212106,00000023,false,Rx,0,5,28,CF,C2,00,45,00,00,00
8261631,0000001B,false,Rx,0,3,24,FF,DB,00,00,00,00,00
8291778,00000023,false,Rx,0,5,24,4E,BB,00,D1,00,00,00
8341758,0000001B,false,Rx,0,3,27,FF,D8,00,00,00,00,00
8371673,00000023,false,Rx,0,5,27,EE,BD,00,2C,00,00,00
8421614,0000001B,false,Rx,0,3,B1,FF,4E,00,00,00,00,00
8451690,00000023,false,Rx,0,5,B1,80,7F,04,4A,00,00,00
8501743,0000001B,false,Rx,0,3,21,FF,DE,00,00,00,00,00
8531747,00000023,false,Rx,0,3,21,7D,A3,00,00,00,00,00
8581735,0000001B,false,Rx,0,3,22,FF,DD,00,00,00,00,00
8611819,00000023,false,Rx,0,5,22,8A,BD,00,95,00,00,00
8661831,0000001B,false,Rx,0,3,23,FF,DC,00,00,00,00,00
8691754,00000023,false,Rx,0,5,23,E6,C2,00,33,00,00,00
8741862,0000001B,false,Rx,0,3,25,FF,DA,00,00,00,00,00
8771673,00000023,false,Rx,0,5,25,B5,C2,00,62,00,00,00
8821805,0000001B,false,Rx,0,3,26,FF,D9,00,00,00,00,00
8851689,00000023,false,Rx,0,5,26,4E,BD,00,CD,00,00,00
8902093,0000001B,false,Rx,0,3,28,FF,D7,00,00,00,00,00
8931824,00000023,false,Rx,0,5,28,CF,C2,00,45,00,00,00
8981661,0000001B,false,Rx,0,3,24,FF,DB,00,00,00,00,00
9015968,00000023,false,Rx,0,5,24,A0,BA,00,80,00,00,00
9061614,0000001B,false,Rx,0,3,27,FF,D8,00,00,00,00,00
9091705,00000023,false,Rx,0,5,27,EE,BD,00,2C,00,00,00
9141798,0000001B,false,Rx,0,3,B1,FF,4E,00,00,00,00,00
9171697,00000023,false,Rx,0,5,B1,80,7F,04,4A,00,00,00
9221607,0000001B,false,Rx,0,3,21,FF,DE,00,00,00,00,00
9251842,00000023,false,Rx,0,3,21,7D,A3,00,00,00,00,00
9301846,0000001B,false,Rx,0,3,22,FF,DD,00,00,00,00,00
9331761,00000023,false,Rx,0,5,22,8A,BD,00,95,00,00,00
9381726,0000001B,false,Rx,0,3,23,FF,DC,00,00,00,00,00
9411953,00000023,false,Rx,0,5,23,E6,C2,00,33,00,00,00
9461686,0000001B,false,Rx,0,3,25,FF,DA,00,00,00,00,00
9491778,00000023,false,Rx,0,5,25,B5,C2,00,62,00,00,00
9541910,0000001B,false,Rx,0,3,26,FF,D9,00,00,00,00,00
9571666,00000023,false,Rx,0,5,26,4E,BD,00,CD,00,00,00
9621758,0000001B,false,Rx,0,3,28,FF,D7,00,00,00,00,00
9651746,00000023,false,Rx,0,5,28,CF,C2,00,45,00,00,00
9701814,0000001B,false,Rx,0,3,24,FF,DB,00,00,00,00,00
9731714,00000023,false,Rx,0,5,24,F4,B9,00,2D,00,00,00
9781822,0000001B,false,Rx,0,3,27,FF,D8,00,00,00,00,00
9811882,00000023,false,Rx,0,5,27,EE,BD,00,2C,00,00,00
9861743,0000001B,false,Rx,0,3,B1,FF,4E,00,00,00,00,00
9891898,00000023,false,Rx,0,5,B1,80,7F,04,4A,00,00,00
9941902,0000001B,false,Rx,0,3,21,FF,DE,00,00,00,00,00
9971856,00000023,false,Rx,0,3,21,7D,A3,00,00,00,00,00
10021884,0000001B,false,Rx,0,3,22,FF,DD,00,00,00,00,00
10051752,00000023,false,Rx,0,5,22,8A,BD,00,95,00,00,00
10101836,0000001B,false,Rx,0,3,23,FF,DC,00,00,00,00,00
10131681,00000023,false,Rx,0,5,23,E6,C2,00,33,00,00,00
10181726,0000001B,false,Rx,0,3,25,FF,DA,00,00,00,00,00
10212041,00000023,false,Rx,0,5,25,B5,C2,00,62,00,00,00
10261822,0000001B,false,Rx,0,3,26,FF,D9,00,00,00,00,00
10291666,00000023,false,Rx,0,5,26,4E,BD,00,CD,00,00,00
10341862,0000001B,false,Rx,0,3,28,FF,D7,00,00,00,00,00
10371754,00000023,false,Rx,0,5,28,CF,C2,00,45,00,00,00
10421862,0000001B,false,Rx,0,3,24,FF,DB,00,00,00,00,00
10451889,00000023,false,Rx,0,5,24,47,B9,00,DA,00,00,00
10501854,0000001B,false,Rx,0,3,27,FF,D8,00,00,00,00,00
10531857,00000023,false,Rx,0,5,27,EE,BD,00,2C,00,00,00
10581838,0000001B,false,Rx,0,3,B1,FF,4E,00,00,00,00,00
10611922,00000023,false,Rx,0,5,B1,80,7F,04,4A,00,00,00
10661910,0000001B,false,Rx,0,3,21,FF,DE,00,00,00,00,00
10692186,00000023,false,Rx,0,3,21,7D,A3,00,00,00,00,00
10741799,0000001B,false,Rx,0,3,22,FF,DD,00,00,00,00,00
10771803,00000023,false,Rx,0,5,22,8A,BD,00,95,00,00,00
10821958,0000001B,false,Rx,0,3,23,FF,DC,00,00,00,00,00
10851826,00000023,false,Rx,0,5,23,E6,C2,00,33,00,00,00
10901879,0000001B,false,Rx,0,3,25,FF,DA,00,00,00,00,00
10931747,00000023,false,Rx,0,5,25,B5,C2,00,62,00,00,00
10981808,0000001B,false,Rx,0,3,26,FF,D9,00,00,00,00,00
11015917,00000023,false,Rx,0,5,26,4E,BD,00,CD,00,00,00
11061841,0000001B,false,Rx,0,3,28,FF,D7,00,00,00,00,00
11091868,00000023,false,Rx,0,5,28,CF,C2,00,45,00,00,00
11141793,0000001B,false,Rx,0,3,24,FF,DB,00,00,00,00,00
11171797,00000023,false,Rx,0,5,24,AE,B8,00,74,00,00,00
11222201,0000002F,false,Rx,0,5,27,EE,BD,05,27,00,00,00
11261726,0000002F,false,Rx,0,5,B1,FE,FF,00,4F,00,00,00
11301849,0000002F,false,Rx,0,8,21,7D,BD,05,9E,FF,ED,F6
11612128,00000023,false,Rx,0,5,27,EE,BD,00,2C,00,00,00
11661838,0000001B,false,Rx,0,3,B1,FF,4E,00,00,00,00,00
11691865,00000023,false,Rx,0,5,B1,80,7F,04,4A,00,00,00
11741957,0000001B,false,Rx,0,3,21,FF,DE,00,00,00,00,00
11771849,00000023,false,Rx,0,3,21,7D,A3,00,00,00,00,00
11821981,0000001B,false,Rx,0,3,22,FF,DD,00,00,00,00,00
11851864,00000023,false,Rx,0,5,22,8A,BD,00,95,00,00,00
11901941,0000001B,false,Rx,0,8,23,FF,DC,55,A3,26,4E,BD
12141987,0000001B,false,Rx,0,3,28,FF,D7,00,00,00,00,00
12221843,0000001B,false,Rx,0,3,24,FF,DB,00,00,00,00,00
12251959,00000023,false,Rx,0,8,24,93,B8,40,4F,55,5B,27
12731823,00000023,false,Rx,0,5,25,B5,C2,00,62,00,00,00
12781884,0000001B,false,Rx,0,3,26,FF,D9,00,00,00,00,00
12812072,00000023,false,Rx,0,5,26,4E,BD,00,CD,00,00,00
12861932,0000001B,false,Rx,0,3,28,FF,D7,00,00,00,00,00
12891967,00000023,false,Rx,0,5,28,CF,C2,00,45,00,00,00
12942083,0000002E,false,Rx,0,5,24,FE,FF,FF,DC,00,00,00
12971991,0000001B,false,Rx,0,3,24,FF,DB,00,00,00,00,00
13001939,00000023,false,Rx,0,5,24,93,B8,02,8D,00,00,00
13042063,0000001B,false,Rx,0,3,27,FF,D8,00,00,00,00,00
13072001,00000023,false,Rx,0,5,27,EE,BD,00,2C,00,00,00
13122029,0000001B,false,Rx,0,3,B1,FF,4E,00,00,00,00,00
13152103,00000023,false,Rx,0,5,B1,80,7F,04,4A,00,00,00
13201948,0000001B,false,Rx,0,3,21,FF,DE,00,00,00,00,00
13231991,00000023,false,Rx,0,3,21,7D,A3,00,00,00,00,00
13281972,0000001B,false,Rx,0,3,22,FF,DD,00,00,00,00,00
13312238,00000023,false,Rx,0,5,22,8A,BD,00,95,00,00,00
13362058,0000001B,false,Rx,0,3,23,FF,DC,00,00,00,00,00
13391958,00000023,false,Rx,0,5,23,E6,C2,00,33,00,00,00
13441914,0000001B,false,Rx,0,3,25,FF,DA,00,00,00,00,00
13471878,00000023,false,Rx,0,5,25,B5,C2,00,62,00,00,00
13521924,0000001B,false,Rx,0,3,26,FF,D9,00,00,00,00,00
13552078,00000023,false,Rx,0,5,26,4E,BD,00,CD,00,00,00
13602075,0000001B,false,Rx,0,3,28,FF,D7,00,00,00,00,00
13632005,00000023,false,Rx,0,5,28,CF,C2,00,45,00,00,00
13682010,0000002C,false,Rx,0,5,24,DA,B8,FF,48,00,00,00
13712182,0000001B,false,Rx,0,3,24,FF,DB,00,00,00,00,00
13741938,00000023,false,Rx,0,5,24,DA,B8,00,48,00,00,00
13792006,0000001B,false,Rx,0,3,27,FF,D8,00,00,00,00,00
13822049,00000023,false,Rx,0,5,27,EE,BD,00,2C,00,00,00
13871855,0000001B,false,Rx,0,3,B1,FF,4E,00,00,00,00,00
13902074,00000023,false,Rx,0,5,B1,80,7F,04,4A,00,00,00
13952039,0000001B,false,Rx,0,3,21,FF,DE,00,00,00,00,00
13982050,00000023,false,Rx,0,3,21,7D,A3,00,00,00,00,00
14031856,0000001B,false,Rx,0,3,22,FF,DD,00,00,00,00,00
14061916,00000023,false,Rx,0,5,22,8A,BD,00,95,00,00,00
14112224,0000001B,false,Rx,0,3,23,FF,DC,00,00,00,00,00
14141980,00000023,false,Rx,0,5,23,E6,C2,00,33,00,00,00
14191914,0000001B,false,Rx,0,3,25,FF,DA,00,00,00,00,00
14222060,00000023,false,Rx,0,5,25,B5,C2,00,62,00,00,00
14272104,0000001B,false,Rx,0,3,26,FF,D9,00,00,00,00,00
14302115,00000023,false,Rx,0,5,26,4E,BD,00,CD,00,00,00
14352088,0000001B,false,Rx,0,3,28,FF,D7,00,00,00,00,00
14381964,00000023,false,Rx,0,5,28,CF,C2,00,45,00,00,00
14432072,0000002E,false,Rx,0,5,24,FC,FF,FF,DE,00,00,00
14461908,0000001B,false,Rx,0,3,24,FF,DB,00,00,00,00,00
14492039,00000023,false,Rx,0,5,24,DA,B8,00,48,00,00,00
14542155,0000001B,false,Rx,0,3,27,FF,D8,00,00,00,00,00
14572094,00000023,false,Rx,0,5,27,EE,BD,00,2C,00,00,00
14622098,0000001B,false,Rx,0,3,B1,FF,4E,00,00,00,00,00
14652094,00000023,false,Rx,0,5,B1,80,7F,04,4A,00,00,00
14702202,0000001B,false,Rx,0,3,21,FF,DE,00,00,00,00,00
14731997,00000023,false,Rx,0,3,21,7D,A3,00,00,00,00,00
14782121,0000001B,false,Rx,0,3,22,FF,DD,00,00,00,00,00
14812244,00000023,false,Rx,0,5,22,8A,BD,00,95,00,00,00
14862704,0000001B,false,Rx,0,3,23,FF,DC,00,00,00,00,00
14892115,00000023,false,Rx,0,5,23,E6,C2,00,33,00,00,00
14942207,0000001B,false,Rx,0,3,25,FF,DA,00,00,00,00,00
14971971,00000023,false,Rx,0,5,25,B5,C2,00,62,00,00,00
15022040,0000001B,false,Rx,0,3,26,FF,D9,00,00,00,00,00
15052171,00000023,false,Rx,0,5,26,4E,BD,00,CD,00,00,00
15102089,0000001B,false,Rx,0,3,28,FF,D7,00,00,00,00,00
15132116,00000023,false,Rx,0,5,28,CF,C2,00,45,00,00,00
15182112,0000001B,false,Rx,0,3,24,FF,DB,00,00,00,00,00
15212323,00000023,false,Rx,0,5,24,DA,B8,00,48,00,00,00
15262104,0000001B,false,Rx,0,3,27,FF,D8,00,00,00,00,00
15291948,00000023,false,Rx,0,5,27,EE,BD,00,2C,00,00,00
15342113,0000001B,false,Rx,0,3,B1,FF,4E,00,00,00,00,00
15372171,00000023,false,Rx,0,5,B1,80,7F,04,4A,00,00,00
15421977,0000001B,false,Rx,0,3,21,FF,DE,00,00,00,00,00
15452069,00000023,false,Rx,0,3,21,7D,A3,00,00,00,00,00
15502137,0000001B,false,Rx,0,3,22,FF,DD,00,00,00,00,00
